1



                                 *********************************************

                                    NUMERICAL ELECTROMAGNETICS CODE (NEC-2D)

                                 *********************************************




                                     - - - - COMMENTS - - - -


                          A vertical dipole array, 2 element                                         
                          		                                                                         
                                                                                                     
                                                                                                     
                                                                                                     
                                                                                                     
                                                                                                     




                                 - - - STRUCTURE SPECIFICATION - - -

                                     COORDINATES MUST BE INPUT IN
                                     METERS OR BE SCALED TO METERS
                                     BEFORE STRUCTURE INPUT IS ENDED


  WIRE                                                                               NO. OF    FIRST  LAST     TAG
  NO.        X1         Y1         Z1          X2         Y2         Z2      RADIUS   SEG.     SEG.   SEG.     NO.
     1    9.99335    0.00000   -4.99667     9.99335    0.00000    4.99667    0.00005     21        1    21       2
     2    0.00000    0.00000   -4.99667     0.00000    0.00000    4.99667    0.00005     21       22    42       1

   TOTAL SEGMENTS USED=   42     NO. SEG. IN A SYMMETRIC CELL=   42     SYMMETRY FLAG=  0


         - MULTIPLE WIRE JUNCTIONS -
 JUNCTION    SEGMENTS  (- FOR END 1, + FOR END 2)
  NONE




                                 - - - - SEGMENTATION DATA - - - -

                                        COORDINATES IN METERS

                         I+ AND I- INDICATE THE SEGMENTS BEFORE AND AFTER I


  SEG.   COORDINATES OF SEG. CENTER     SEG.     ORIENTATION ANGLES    WIRE    CONNECTION DATA   TAG
  NO.       X         Y         Z       LENGTH     ALPHA     BETA      RADIUS    I-   I    I+    NO.
     1   9.99335   0.00000  -4.75874   0.47587   90.00000   0.00000   0.00005     0    1    2      2
     2   9.99335   0.00000  -4.28286   0.47587   90.00000   0.00000   0.00005     1    2    3      2
     3   9.99335   0.00000  -3.80699   0.47587   90.00000   0.00000   0.00005     2    3    4      2
     4   9.99335   0.00000  -3.33112   0.47587   90.00000   0.00000   0.00005     3    4    5      2
     5   9.99335   0.00000  -2.85524   0.47587   90.00000   0.00000   0.00005     4    5    6      2
     6   9.99335   0.00000  -2.37937   0.47587   90.00000   0.00000   0.00005     5    6    7      2
     7   9.99335   0.00000  -1.90350   0.47587   90.00000   0.00000   0.00005     6    7    8      2
     8   9.99335   0.00000  -1.42762   0.47587   90.00000   0.00000   0.00005     7    8    9      2
     9   9.99335   0.00000  -0.95175   0.47587   90.00000   0.00000   0.00005     8    9   10      2
    10   9.99335   0.00000  -0.47587   0.47587   90.00000   0.00000   0.00005     9   10   11      2
    11   9.99335   0.00000   0.00000   0.47587   90.00000   0.00000   0.00005    10   11   12      2
    12   9.99335   0.00000   0.47587   0.47587   90.00000   0.00000   0.00005    11   12   13      2
    13   9.99335   0.00000   0.95175   0.47587   90.00000   0.00000   0.00005    12   13   14      2
    14   9.99335   0.00000   1.42762   0.47587   90.00000   0.00000   0.00005    13   14   15      2
    15   9.99335   0.00000   1.90350   0.47587   90.00000   0.00000   0.00005    14   15   16      2
    16   9.99335   0.00000   2.37937   0.47587   90.00000   0.00000   0.00005    15   16   17      2
    17   9.99335   0.00000   2.85524   0.47587   90.00000   0.00000   0.00005    16   17   18      2
    18   9.99335   0.00000   3.33112   0.47587   90.00000   0.00000   0.00005    17   18   19      2
    19   9.99335   0.00000   3.80699   0.47587   90.00000   0.00000   0.00005    18   19   20      2
    20   9.99335   0.00000   4.28286   0.47587   90.00000   0.00000   0.00005    19   20   21      2
    21   9.99335   0.00000   4.75874   0.47587   90.00000   0.00000   0.00005    20   21    0      2
    22   0.00000   0.00000  -4.75874   0.47587   90.00000   0.00000   0.00005     0   22   23      1
    23   0.00000   0.00000  -4.28286   0.47587   90.00000   0.00000   0.00005    22   23   24      1
    24   0.00000   0.00000  -3.80699   0.47587   90.00000   0.00000   0.00005    23   24   25      1
    25   0.00000   0.00000  -3.33112   0.47587   90.00000   0.00000   0.00005    24   25   26      1
    26   0.00000   0.00000  -2.85524   0.47587   90.00000   0.00000   0.00005    25   26   27      1
    27   0.00000   0.00000  -2.37937   0.47587   90.00000   0.00000   0.00005    26   27   28      1
    28   0.00000   0.00000  -1.90350   0.47587   90.00000   0.00000   0.00005    27   28   29      1
    29   0.00000   0.00000  -1.42762   0.47587   90.00000   0.00000   0.00005    28   29   30      1
    30   0.00000   0.00000  -0.95175   0.47587   90.00000   0.00000   0.00005    29   30   31      1
    31   0.00000   0.00000  -0.47587   0.47587   90.00000   0.00000   0.00005    30   31   32      1
    32   0.00000   0.00000   0.00000   0.47587   90.00000   0.00000   0.00005    31   32   33      1
    33   0.00000   0.00000   0.47587   0.47587   90.00000   0.00000   0.00005    32   33   34      1
    34   0.00000   0.00000   0.95175   0.47587   90.00000   0.00000   0.00005    33   34   35      1
    35   0.00000   0.00000   1.42762   0.47587   90.00000   0.00000   0.00005    34   35   36      1
    36   0.00000   0.00000   1.90350   0.47587   90.00000   0.00000   0.00005    35   36   37      1
    37   0.00000   0.00000   2.37937   0.47587   90.00000   0.00000   0.00005    36   37   38      1
    38   0.00000   0.00000   2.85524   0.47587   90.00000   0.00000   0.00005    37   38   39      1
    39   0.00000   0.00000   3.33112   0.47587   90.00000   0.00000   0.00005    38   39   40      1
    40   0.00000   0.00000   3.80699   0.47587   90.00000   0.00000   0.00005    39   40   41      1
    41   0.00000   0.00000   4.28286   0.47587   90.00000   0.00000   0.00005    40   41   42      1
    42   0.00000   0.00000   4.75874   0.47587   90.00000   0.00000   0.00005    41   42    0      1






 ***** DATA CARD NO.  1   GN  -1     0     0     0  0.00000E+00  0.00000E+00  0.00000E+00  0.00000E+00  0.00000E+00  0.00000E+00
 ***** DATA CARD NO.  2   EK   0     0     0     0  0.00000E+00  0.00000E+00  0.00000E+00  0.00000E+00  0.00000E+00  0.00000E+00
 ***** DATA CARD NO.  3   EX   0     1    11     0  1.00000E+00  0.00000E+00  0.00000E+00  0.00000E+00  0.00000E+00  0.00000E+00
 ***** DATA CARD NO.  4   NT   1    11     2    11  0.00000E+00  0.00000E+00  0.00000E+00  0.00000E+00  0.00000E+00  0.00000E+00
 ***** DATA CARD NO.  5   FR   0     0     0     0  1.50100E+01  0.00000E+00  0.00000E+00  0.00000E+00  0.00000E+00  0.00000E+00
 ***** DATA CARD NO.  6   RP   0    37    73  1003 -1.80000E+02  0.00000E+00  5.00000E+00  5.00000E+00  0.00000E+00  0.00000E+00




                                 - - - - - - FREQUENCY - - - - - -

                                    FREQUENCY= 1.5010E+01 MHZ
                                    WAVELENGTH= 1.9973E+01 METERS




                    APPROXIMATE INTEGRATION EMPLOYED FOR SEGMENTS MORE THAN   1.000 WAVELENGTHS APART

                    THE EXTENDED THIN WIRE KERNEL WILL BE USED



                               - - - STRUCTURE IMPEDANCE LOADING - - -

                                   THIS STRUCTURE IS NOT LOADED



                                  - - - ANTENNA ENVIRONMENT - - -

                                            FREE SPACE



                                - - - MATRIX TIMING - - -

                        FILL=    0.016 SEC.,  FACTOR=    0.000 SEC.



                                            - - - NETWORK DATA - - -

      - FROM -    - TO -                          -  -  ADMITTANCE MATRIX ELEMENTS (MHOS)  -  -
      TAG  SEG.   TAG  SEG.             (ONE,ONE)                   (ONE,TWO)                   (TWO,TWO)
      NO.   NO.   NO.   NO.        REAL          IMAG.         REAL          IMAG.         REAL          IMAG.
        1    32     2    11     0.0000E+00    0.0000E+00    0.0000E+00    0.0000E+00    0.0000E+00    0.0000E+00           



                           - - - STRUCTURE EXCITATION DATA AT NETWORK CONNECTION POINTS - - -

   TAG   SEG.    VOLTAGE (VOLTS)         CURRENT (AMPS)         IMPEDANCE (OHMS)        ADMITTANCE (MHOS)      POWER
   NO.   NO.    REAL        IMAG.       REAL        IMAG.       REAL        IMAG.       REAL        IMAG.     (WATTS)
     2    11-3.15963E-01-2.11816E-01 2.67982E-17 1.08276E-18-1.20901E+16-7.41563E+15-6.01014E-17 3.68642E-17-4.34830E-18
     1    32 1.00000E+00 0.00000E+00 9.59160E-03-5.64290E-03 7.74508E+01 4.55657E+01 9.59160E-03-5.64290E-03 4.79580E-03



                                          - - - ANTENNA INPUT PARAMETERS - - -

   TAG   SEG.    VOLTAGE (VOLTS)         CURRENT (AMPS)         IMPEDANCE (OHMS)        ADMITTANCE (MHOS)      POWER
   NO.   NO.    REAL        IMAG.       REAL        IMAG.       REAL        IMAG.       REAL        IMAG.     (WATTS)
     1    32 1.00000E+00 0.00000E+00 9.59160E-03-5.64290E-03 7.74508E+01 4.55657E+01 9.59160E-03-5.64290E-03 4.79580E-03



                             - - - CURRENTS AND LOCATION - - -

                                 DISTANCES IN WAVELENGTHS


  SEG.  TAG    COORD. OF SEG. CENTER     SEG.            - - - CURRENT (AMPS) - - -
  NO.   NO.     X        Y        Z      LENGTH     REAL        IMAG.       MAG.        PHASE
     1    2   0.5003   0.0000  -0.2383  0.02383  -1.1855E-05  1.9190E-05  2.2557E-05  121.707
     2    2   0.5003   0.0000  -0.2144  0.02383  -3.1648E-05  5.0629E-05  5.9707E-05  122.009
     3    2   0.5003   0.0000  -0.1906  0.02383  -4.7170E-05  7.4643E-05  8.8298E-05  122.291
     4    2   0.5003   0.0000  -0.1668  0.02383  -5.8376E-05  9.1453E-05  1.0850E-04  122.551
     5    2   0.5003   0.0000  -0.1430  0.02383  -6.4942E-05  1.0081E-04  1.1991E-04  122.791
     6    2   0.5003   0.0000  -0.1191  0.02383  -6.6568E-05  1.0247E-04  1.2219E-04  123.010
     7    2   0.5003   0.0000  -0.0953  0.02383  -6.3023E-05  9.6270E-05  1.1506E-04  123.211
     8    2   0.5003   0.0000  -0.0715  0.02383  -5.4145E-05  8.2142E-05  9.8382E-05  123.391
     9    2   0.5003   0.0000  -0.0477  0.02383  -3.9793E-05  6.0004E-05  7.2000E-05  123.552
    10    2   0.5003   0.0000  -0.0238  0.02383  -1.9569E-05  2.9357E-05  3.5281E-05  123.687
    11    2   0.5003   0.0000   0.0000  0.02383   2.6798E-17  1.0828E-18  2.6820E-17    2.314
    12    2   0.5003   0.0000   0.0238  0.02383  -1.9569E-05  2.9357E-05  3.5281E-05  123.687
    13    2   0.5003   0.0000   0.0477  0.02383  -3.9793E-05  6.0004E-05  7.2000E-05  123.552
    14    2   0.5003   0.0000   0.0715  0.02383  -5.4145E-05  8.2142E-05  9.8382E-05  123.391
    15    2   0.5003   0.0000   0.0953  0.02383  -6.3023E-05  9.6270E-05  1.1506E-04  123.211
    16    2   0.5003   0.0000   0.1191  0.02383  -6.6568E-05  1.0247E-04  1.2219E-04  123.010
    17    2   0.5003   0.0000   0.1430  0.02383  -6.4942E-05  1.0081E-04  1.1991E-04  122.791
    18    2   0.5003   0.0000   0.1668  0.02383  -5.8376E-05  9.1453E-05  1.0850E-04  122.551
    19    2   0.5003   0.0000   0.1906  0.02383  -4.7170E-05  7.4643E-05  8.8298E-05  122.291
    20    2   0.5003   0.0000   0.2144  0.02383  -3.1648E-05  5.0629E-05  5.9707E-05  122.009
    21    2   0.5003   0.0000   0.2383  0.02383  -1.1855E-05  1.9190E-05  2.2557E-05  121.707
    22    1   0.0000   0.0000  -0.2383  0.02383   8.0047E-04 -5.3066E-04  9.6039E-04  -33.542
    23    1   0.0000   0.0000  -0.2144  0.02383   2.2760E-03 -1.4970E-03  2.7242E-03  -33.334
    24    1   0.0000   0.0000  -0.1906  0.02383   3.6513E-03 -2.3816E-03  4.3593E-03  -33.115
    25    1   0.0000   0.0000  -0.1668  0.02383   4.9288E-03 -3.1863E-03  5.8690E-03  -32.882
    26    1   0.0000   0.0000  -0.1430  0.02383   6.0899E-03 -3.8993E-03  7.2313E-03  -32.631
    27    1   0.0000   0.0000  -0.1191  0.02383   7.1139E-03 -4.5075E-03  8.4217E-03  -32.359
    28    1   0.0000   0.0000  -0.0953  0.02383   7.9813E-03 -4.9988E-03  9.4175E-03  -32.060
    29    1   0.0000   0.0000  -0.0715  0.02383   8.6749E-03 -5.3627E-03  1.0199E-02  -31.724
    30    1   0.0000   0.0000  -0.0477  0.02383   9.1806E-03 -5.5906E-03  1.0749E-02  -31.340
    31    1   0.0000   0.0000  -0.0238  0.02383   9.4883E-03 -5.6750E-03  1.1056E-02  -30.884
    32    1   0.0000   0.0000   0.0000  0.02383   9.5916E-03 -5.6429E-03  1.1128E-02  -30.469
    33    1   0.0000   0.0000   0.0238  0.02383   9.4883E-03 -5.6750E-03  1.1056E-02  -30.884
    34    1   0.0000   0.0000   0.0477  0.02383   9.1806E-03 -5.5906E-03  1.0749E-02  -31.340
    35    1   0.0000   0.0000   0.0715  0.02383   8.6749E-03 -5.3627E-03  1.0199E-02  -31.724
    36    1   0.0000   0.0000   0.0953  0.02383   7.9813E-03 -4.9988E-03  9.4175E-03  -32.060
    37    1   0.0000   0.0000   0.1191  0.02383   7.1139E-03 -4.5075E-03  8.4217E-03  -32.359
    38    1   0.0000   0.0000   0.1430  0.02383   6.0899E-03 -3.8993E-03  7.2313E-03  -32.631
    39    1   0.0000   0.0000   0.1668  0.02383   4.9288E-03 -3.1863E-03  5.8690E-03  -32.882
    40    1   0.0000   0.0000   0.1906  0.02383   3.6513E-03 -2.3816E-03  4.3593E-03  -33.115
    41    1   0.0000   0.0000   0.2144  0.02383   2.2760E-03 -1.4970E-03  2.7242E-03  -33.334
    42    1   0.0000   0.0000   0.2383  0.02383   8.0047E-04 -5.3066E-04  9.6039E-04  -33.542



                                        - - - POWER BUDGET - - -

                                           INPUT POWER   = 4.7958E-03 WATTS
                                           RADIATED POWER= 4.7958E-03 WATTS
                                           STRUCTURE LOSS= 0.0000E+00 WATTS
                                           NETWORK LOSS  = 4.3368E-18 WATTS
                                           EFFICIENCY    = 100.00 PERCENT



                                                - - - RADIATION PATTERNS - - -

  - - ANGLES - -           - POWER GAINS -       - - - POLARIZATION - - -    - - - E(THETA) - - -    - - - E(PHI) - - -
  THETA     PHI        VERT.   HOR.    TOTAL      AXIAL     TILT   SENSE     MAGNITUDE    PHASE      MAGNITUDE    PHASE 
 DEGREES  DEGREES       DB      DB      DB        RATIO     DEG.              VOLTS/M    DEGREES      VOLTS/M    DEGREES
 -180.00     0.00    -999.99 -999.99 -999.99    0.00000     0.00            5.41437E-12    58.55    0.00000E+00     0.00
 -175.00     0.00     -21.26 -999.99  -21.26    0.00000     0.00  LINEAR    4.63885E-02  -121.33    0.00000E+00     0.00
 -170.00     0.00     -15.20 -999.99  -15.20    0.00000     0.00  LINEAR    9.31396E-02  -121.24    0.00000E+00     0.00
 -165.00     0.00     -11.64 -999.99  -11.64    0.00000     0.00  LINEAR    1.40459E-01  -121.18    0.00000E+00     0.00
 -160.00     0.00      -9.08 -999.99   -9.08    0.00000     0.00  LINEAR    1.88463E-01  -121.16    0.00000E+00     0.00
 -155.00     0.00      -7.09 -999.99   -7.09    0.00000     0.00  LINEAR    2.37142E-01  -121.18    0.00000E+00     0.00
 -150.00     0.00      -5.45 -999.99   -5.45    0.00000     0.00  LINEAR    2.86348E-01  -121.24    0.00000E+00     0.00
 -145.00     0.00      -4.07 -999.99   -4.07    0.00000     0.00  LINEAR    3.35774E-01  -121.32    0.00000E+00     0.00
 -140.00     0.00      -2.88 -999.99   -2.88    0.00000     0.00  LINEAR    3.84958E-01  -121.42    0.00000E+00     0.00
 -135.00     0.00      -1.85 -999.99   -1.85    0.00000     0.00  LINEAR    4.33290E-01  -121.53    0.00000E+00     0.00
 -130.00     0.00      -0.96 -999.99   -0.96    0.00000     0.00  LINEAR    4.80030E-01  -121.65    0.00000E+00     0.00
 -125.00     0.00      -0.19 -999.99   -0.19    0.00000     0.00  LINEAR    5.24337E-01  -121.76    0.00000E+00     0.00
 -120.00     0.00       0.46 -999.99    0.46    0.00000     0.00  LINEAR    5.65303E-01  -121.86    0.00000E+00     0.00
 -115.00     0.00       1.00 -999.99    1.00    0.00000     0.00  LINEAR    6.01995E-01  -121.95    0.00000E+00     0.00
 -110.00     0.00       1.45 -999.99    1.45    0.00000     0.00  LINEAR    6.33505E-01  -122.03    0.00000E+00     0.00
 -105.00     0.00       1.79 -999.99    1.79    0.00000     0.00  LINEAR    6.58997E-01  -122.09    0.00000E+00     0.00
 -100.00     0.00       2.03 -999.99    2.03    0.00000     0.00  LINEAR    6.77760E-01  -122.13    0.00000E+00     0.00
  -95.00     0.00       2.18 -999.99    2.18    0.00000     0.00  LINEAR    6.89247E-01  -122.16    0.00000E+00     0.00
  -90.00     0.00       2.23 -999.99    2.23    0.00000     0.00  LINEAR    6.93114E-01  -122.17    0.00000E+00     0.00
  -85.00     0.00       2.18 -999.99    2.18    0.00000     0.00  LINEAR    6.89247E-01  -122.16    0.00000E+00     0.00
  -80.00     0.00       2.03 -999.99    2.03    0.00000     0.00  LINEAR    6.77760E-01  -122.13    0.00000E+00     0.00
  -75.00     0.00       1.79 -999.99    1.79    0.00000     0.00  LINEAR    6.58997E-01  -122.09    0.00000E+00     0.00
  -70.00     0.00       1.45 -999.99    1.45    0.00000     0.00  LINEAR    6.33505E-01  -122.03    0.00000E+00     0.00
  -65.00     0.00       1.00 -999.99    1.00    0.00000     0.00  LINEAR    6.01995E-01  -121.95    0.00000E+00     0.00
  -60.00     0.00       0.46 -999.99    0.46    0.00000     0.00  LINEAR    5.65303E-01  -121.86    0.00000E+00     0.00
  -55.00     0.00      -0.19 -999.99   -0.19    0.00000     0.00  LINEAR    5.24337E-01  -121.76    0.00000E+00     0.00
  -50.00     0.00      -0.96 -999.99   -0.96    0.00000     0.00  LINEAR    4.80030E-01  -121.65    0.00000E+00     0.00
  -45.00     0.00      -1.85 -999.99   -1.85    0.00000     0.00  LINEAR    4.33290E-01  -121.53    0.00000E+00     0.00
  -40.00     0.00      -2.88 -999.99   -2.88    0.00000     0.00  LINEAR    3.84958E-01  -121.42    0.00000E+00     0.00
  -35.00     0.00      -4.07 -999.99   -4.07    0.00000     0.00  LINEAR    3.35774E-01  -121.32    0.00000E+00     0.00
  -30.00     0.00      -5.45 -999.99   -5.45    0.00000     0.00  LINEAR    2.86348E-01  -121.24    0.00000E+00     0.00
  -25.00     0.00      -7.09 -999.99   -7.09    0.00000     0.00  LINEAR    2.37142E-01  -121.18    0.00000E+00     0.00
  -20.00     0.00      -9.08 -999.99   -9.08    0.00000     0.00  LINEAR    1.88463E-01  -121.16    0.00000E+00     0.00
  -15.00     0.00     -11.64 -999.99  -11.64    0.00000     0.00  LINEAR    1.40459E-01  -121.18    0.00000E+00     0.00
  -10.00     0.00     -15.20 -999.99  -15.20    0.00000     0.00  LINEAR    9.31396E-02  -121.24    0.00000E+00     0.00
   -5.00     0.00     -21.26 -999.99  -21.26    0.00000     0.00  LINEAR    4.63885E-02  -121.33    0.00000E+00     0.00
    0.00     0.00    -999.99 -999.99 -999.99    0.00000     0.00            0.00000E+00     0.00    0.00000E+00     0.00
 -180.00     5.00    -999.99 -999.99 -999.99    0.00000     0.00            5.41437E-12    58.55    0.00000E+00     0.00
 -175.00     5.00     -21.26 -999.99  -21.26    0.00000     0.00  LINEAR    4.63882E-02  -121.33    0.00000E+00     0.00
 -170.00     5.00     -15.20 -999.99  -15.20    0.00000     0.00  LINEAR    9.31381E-02  -121.24    0.00000E+00     0.00
 -165.00     5.00     -11.64 -999.99  -11.64    0.00000     0.00  LINEAR    1.40456E-01  -121.18    0.00000E+00     0.00
 -160.00     5.00      -9.08 -999.99   -9.08    0.00000     0.00  LINEAR    1.88455E-01  -121.16    0.00000E+00     0.00
