1



                                 *********************************************

                                    NUMERICAL ELECTROMAGNETICS CODE (NEC-2D)

                                 *********************************************




                                     - - - - COMMENTS - - - -


                          A vertical dipole array, 2 element                                         
                          		                                                                         
                                                                                                     
                                                                                                     
                                                                                                     
                                                                                                     
                                                                                                     




                                 - - - STRUCTURE SPECIFICATION - - -

                                     COORDINATES MUST BE INPUT IN
                                     METERS OR BE SCALED TO METERS
                                     BEFORE STRUCTURE INPUT IS ENDED


  WIRE                                                                               NO. OF    FIRST  LAST     TAG
  NO.        X1         Y1         Z1          X2         Y2         Z2      RADIUS   SEG.     SEG.   SEG.     NO.
     1    9.99335    0.00000   -4.99667     9.99335    0.00000    4.99667    0.00005     21        1    21       2
     2    0.00000    0.00000   -4.99667     0.00000    0.00000    4.99667    0.00005     21       22    42       1

   TOTAL SEGMENTS USED=   42     NO. SEG. IN A SYMMETRIC CELL=   42     SYMMETRY FLAG=  0


         - MULTIPLE WIRE JUNCTIONS -
 JUNCTION    SEGMENTS  (- FOR END 1, + FOR END 2)
  NONE




                                 - - - - SEGMENTATION DATA - - - -

                                        COORDINATES IN METERS

                         I+ AND I- INDICATE THE SEGMENTS BEFORE AND AFTER I


  SEG.   COORDINATES OF SEG. CENTER     SEG.     ORIENTATION ANGLES    WIRE    CONNECTION DATA   TAG
  NO.       X         Y         Z       LENGTH     ALPHA     BETA      RADIUS    I-   I    I+    NO.
     1   9.99335   0.00000  -4.75874   0.47587   90.00000   0.00000   0.00005     0    1    2      2
     2   9.99335   0.00000  -4.28286   0.47587   90.00000   0.00000   0.00005     1    2    3      2
     3   9.99335   0.00000  -3.80699   0.47587   90.00000   0.00000   0.00005     2    3    4      2
     4   9.99335   0.00000  -3.33112   0.47587   90.00000   0.00000   0.00005     3    4    5      2
     5   9.99335   0.00000  -2.85524   0.47587   90.00000   0.00000   0.00005     4    5    6      2
     6   9.99335   0.00000  -2.37937   0.47587   90.00000   0.00000   0.00005     5    6    7      2
     7   9.99335   0.00000  -1.90350   0.47587   90.00000   0.00000   0.00005     6    7    8      2
     8   9.99335   0.00000  -1.42762   0.47587   90.00000   0.00000   0.00005     7    8    9      2
     9   9.99335   0.00000  -0.95175   0.47587   90.00000   0.00000   0.00005     8    9   10      2
    10   9.99335   0.00000  -0.47587   0.47587   90.00000   0.00000   0.00005     9   10   11      2
    11   9.99335   0.00000   0.00000   0.47587   90.00000   0.00000   0.00005    10   11   12      2
    12   9.99335   0.00000   0.47587   0.47587   90.00000   0.00000   0.00005    11   12   13      2
    13   9.99335   0.00000   0.95175   0.47587   90.00000   0.00000   0.00005    12   13   14      2
    14   9.99335   0.00000   1.42762   0.47587   90.00000   0.00000   0.00005    13   14   15      2
    15   9.99335   0.00000   1.90350   0.47587   90.00000   0.00000   0.00005    14   15   16      2
    16   9.99335   0.00000   2.37937   0.47587   90.00000   0.00000   0.00005    15   16   17      2
    17   9.99335   0.00000   2.85524   0.47587   90.00000   0.00000   0.00005    16   17   18      2
    18   9.99335   0.00000   3.33112   0.47587   90.00000   0.00000   0.00005    17   18   19      2
    19   9.99335   0.00000   3.80699   0.47587   90.00000   0.00000   0.00005    18   19   20      2
    20   9.99335   0.00000   4.28286   0.47587   90.00000   0.00000   0.00005    19   20   21      2
    21   9.99335   0.00000   4.75874   0.47587   90.00000   0.00000   0.00005    20   21    0      2
    22   0.00000   0.00000  -4.75874   0.47587   90.00000   0.00000   0.00005     0   22   23      1
    23   0.00000   0.00000  -4.28286   0.47587   90.00000   0.00000   0.00005    22   23   24      1
    24   0.00000   0.00000  -3.80699   0.47587   90.00000   0.00000   0.00005    23   24   25      1
    25   0.00000   0.00000  -3.33112   0.47587   90.00000   0.00000   0.00005    24   25   26      1
    26   0.00000   0.00000  -2.85524   0.47587   90.00000   0.00000   0.00005    25   26   27      1
    27   0.00000   0.00000  -2.37937   0.47587   90.00000   0.00000   0.00005    26   27   28      1
    28   0.00000   0.00000  -1.90350   0.47587   90.00000   0.00000   0.00005    27   28   29      1
    29   0.00000   0.00000  -1.42762   0.47587   90.00000   0.00000   0.00005    28   29   30      1
    30   0.00000   0.00000  -0.95175   0.47587   90.00000   0.00000   0.00005    29   30   31      1
    31   0.00000   0.00000  -0.47587   0.47587   90.00000   0.00000   0.00005    30   31   32      1
    32   0.00000   0.00000   0.00000   0.47587   90.00000   0.00000   0.00005    31   32   33      1
    33   0.00000   0.00000   0.47587   0.47587   90.00000   0.00000   0.00005    32   33   34      1
    34   0.00000   0.00000   0.95175   0.47587   90.00000   0.00000   0.00005    33   34   35      1
    35   0.00000   0.00000   1.42762   0.47587   90.00000   0.00000   0.00005    34   35   36      1
    36   0.00000   0.00000   1.90350   0.47587   90.00000   0.00000   0.00005    35   36   37      1
    37   0.00000   0.00000   2.37937   0.47587   90.00000   0.00000   0.00005    36   37   38      1
    38   0.00000   0.00000   2.85524   0.47587   90.00000   0.00000   0.00005    37   38   39      1
    39   0.00000   0.00000   3.33112   0.47587   90.00000   0.00000   0.00005    38   39   40      1
    40   0.00000   0.00000   3.80699   0.47587   90.00000   0.00000   0.00005    39   40   41      1
    41   0.00000   0.00000   4.28286   0.47587   90.00000   0.00000   0.00005    40   41   42      1
    42   0.00000   0.00000   4.75874   0.47587   90.00000   0.00000   0.00005    41   42    0      1






 ***** DATA CARD NO.  1   GN  -1     0     0     0  0.00000E+00  0.00000E+00  0.00000E+00  0.00000E+00  0.00000E+00  0.00000E+00
 ***** DATA CARD NO.  2   EK   0     0     0     0  0.00000E+00  0.00000E+00  0.00000E+00  0.00000E+00  0.00000E+00  0.00000E+00
 ***** DATA CARD NO.  3   EX   0     2    11     0  1.00000E+00  0.00000E+00  0.00000E+00  0.00000E+00  0.00000E+00  0.00000E+00
 ***** DATA CARD NO.  4   EX   0     1    11     0  1.00000E+00  0.00000E+00  0.00000E+00  0.00000E+00  0.00000E+00  0.00000E+00
 ***** DATA CARD NO.  5   NT   1    11     2    11  0.00000E+00  0.00000E+00  0.00000E+00  0.00000E+00  0.00000E+00  0.00000E+00
 ***** DATA CARD NO.  6   FR   0     0     0     0  1.50100E+01  0.00000E+00  0.00000E+00  0.00000E+00  0.00000E+00  0.00000E+00
 ***** DATA CARD NO.  7   RP   0    37    73  1003 -1.80000E+02  0.00000E+00  5.00000E+00  5.00000E+00  0.00000E+00  0.00000E+00




                                 - - - - - - FREQUENCY - - - - - -

                                    FREQUENCY= 1.5010E+01 MHZ
                                    WAVELENGTH= 1.9973E+01 METERS




                    APPROXIMATE INTEGRATION EMPLOYED FOR SEGMENTS MORE THAN   1.000 WAVELENGTHS APART

                    THE EXTENDED THIN WIRE KERNEL WILL BE USED



                               - - - STRUCTURE IMPEDANCE LOADING - - -

                                   THIS STRUCTURE IS NOT LOADED



                                  - - - ANTENNA ENVIRONMENT - - -

                                            FREE SPACE



                                - - - MATRIX TIMING - - -

                        FILL=    0.016 SEC.,  FACTOR=    0.000 SEC.



                                            - - - NETWORK DATA - - -

      - FROM -    - TO -                          -  -  ADMITTANCE MATRIX ELEMENTS (MHOS)  -  -
      TAG  SEG.   TAG  SEG.             (ONE,ONE)                   (ONE,TWO)                   (TWO,TWO)
      NO.   NO.   NO.   NO.        REAL          IMAG.         REAL          IMAG.         REAL          IMAG.
        1    32     2    11     0.0000E+00    0.0000E+00    0.0000E+00    0.0000E+00    0.0000E+00    0.0000E+00           



                           - - - STRUCTURE EXCITATION DATA AT NETWORK CONNECTION POINTS - - -

   TAG   SEG.    VOLTAGE (VOLTS)         CURRENT (AMPS)         IMPEDANCE (OHMS)        ADMITTANCE (MHOS)      POWER
   NO.   NO.    REAL        IMAG.       REAL        IMAG.       REAL        IMAG.       REAL        IMAG.     (WATTS)
     1    32 1.00000E+00 0.00000E+00 1.51261E-02-3.56551E-03 6.26308E+01 1.47632E+01 1.51261E-02-3.56551E-03 7.56306E-03
     2    11 1.00000E+00 0.00000E+00 1.51261E-02-3.56551E-03 6.26308E+01 1.47632E+01 1.51261E-02-3.56551E-03 7.56306E-03



                                          - - - ANTENNA INPUT PARAMETERS - - -

   TAG   SEG.    VOLTAGE (VOLTS)         CURRENT (AMPS)         IMPEDANCE (OHMS)        ADMITTANCE (MHOS)      POWER
   NO.   NO.    REAL        IMAG.       REAL        IMAG.       REAL        IMAG.       REAL        IMAG.     (WATTS)
     2    11 1.00000E+00 0.00000E+00 1.51261E-02-3.56551E-03 6.26308E+01 1.47632E+01 1.51261E-02-3.56551E-03 7.56306E-03
     1    32 1.00000E+00 0.00000E+00 1.51261E-02-3.56551E-03 6.26308E+01 1.47632E+01 1.51261E-02-3.56551E-03 7.56306E-03



                             - - - CURRENTS AND LOCATION - - -

                                 DISTANCES IN WAVELENGTHS


  SEG.  TAG    COORD. OF SEG. CENTER     SEG.            - - - CURRENT (AMPS) - - -
  NO.   NO.     X        Y        Z      LENGTH     REAL        IMAG.       MAG.        PHASE
     1    2   0.5003   0.0000  -0.2383  0.02383   1.2633E-03 -3.5653E-04  1.3126E-03  -15.760
     2    2   0.5003   0.0000  -0.2144  0.02383   3.5914E-03 -1.0023E-03  3.7286E-03  -15.594
     3    2   0.5003   0.0000  -0.1906  0.02383   5.7608E-03 -1.5887E-03  5.9759E-03  -15.417
     4    2   0.5003   0.0000  -0.1668  0.02383   7.7755E-03 -2.1167E-03  8.0585E-03  -15.228
     5    2   0.5003   0.0000  -0.1430  0.02383   9.6063E-03 -2.5784E-03  9.9463E-03  -15.025
     6    2   0.5003   0.0000  -0.1191  0.02383   1.1221E-02 -2.9652E-03  1.1606E-02  -14.803
     7    2   0.5003   0.0000  -0.0953  0.02383   1.2588E-02 -3.2691E-03  1.3006E-02  -14.558
     8    2   0.5003   0.0000  -0.0715  0.02383   1.3681E-02 -3.4832E-03  1.4118E-02  -14.284
     9    2   0.5003   0.0000  -0.0477  0.02383   1.4478E-02 -3.6019E-03  1.4920E-02  -13.970
    10    2   0.5003   0.0000  -0.0238  0.02383   1.4963E-02 -3.6199E-03  1.5395E-02  -13.599
    11    2   0.5003   0.0000   0.0000  0.02383   1.5126E-02 -3.5655E-03  1.5541E-02  -13.264
    12    2   0.5003   0.0000   0.0238  0.02383   1.4963E-02 -3.6199E-03  1.5395E-02  -13.599
    13    2   0.5003   0.0000   0.0477  0.02383   1.4478E-02 -3.6019E-03  1.4920E-02  -13.970
    14    2   0.5003   0.0000   0.0715  0.02383   1.3681E-02 -3.4832E-03  1.4118E-02  -14.284
    15    2   0.5003   0.0000   0.0953  0.02383   1.2588E-02 -3.2691E-03  1.3006E-02  -14.558
    16    2   0.5003   0.0000   0.1191  0.02383   1.1221E-02 -2.9652E-03  1.1606E-02  -14.803
    17    2   0.5003   0.0000   0.1430  0.02383   9.6063E-03 -2.5784E-03  9.9463E-03  -15.025
    18    2   0.5003   0.0000   0.1668  0.02383   7.7755E-03 -2.1167E-03  8.0585E-03  -15.228
    19    2   0.5003   0.0000   0.1906  0.02383   5.7608E-03 -1.5887E-03  5.9759E-03  -15.417
    20    2   0.5003   0.0000   0.2144  0.02383   3.5914E-03 -1.0023E-03  3.7286E-03  -15.594
    21    2   0.5003   0.0000   0.2383  0.02383   1.2633E-03 -3.5653E-04  1.3126E-03  -15.760
    22    1   0.0000   0.0000  -0.2383  0.02383   1.2633E-03 -3.5653E-04  1.3126E-03  -15.760
    23    1   0.0000   0.0000  -0.2144  0.02383   3.5914E-03 -1.0023E-03  3.7286E-03  -15.594
    24    1   0.0000   0.0000  -0.1906  0.02383   5.7608E-03 -1.5887E-03  5.9759E-03  -15.417
    25    1   0.0000   0.0000  -0.1668  0.02383   7.7755E-03 -2.1167E-03  8.0585E-03  -15.228
    26    1   0.0000   0.0000  -0.1430  0.02383   9.6063E-03 -2.5784E-03  9.9463E-03  -15.025
    27    1   0.0000   0.0000  -0.1191  0.02383   1.1221E-02 -2.9652E-03  1.1606E-02  -14.803
    28    1   0.0000   0.0000  -0.0953  0.02383   1.2588E-02 -3.2691E-03  1.3006E-02  -14.558
    29    1   0.0000   0.0000  -0.0715  0.02383   1.3681E-02 -3.4832E-03  1.4118E-02  -14.284
    30    1   0.0000   0.0000  -0.0477  0.02383   1.4478E-02 -3.6019E-03  1.4920E-02  -13.970
    31    1   0.0000   0.0000  -0.0238  0.02383   1.4963E-02 -3.6199E-03  1.5395E-02  -13.599
    32    1   0.0000   0.0000   0.0000  0.02383   1.5126E-02 -3.5655E-03  1.5541E-02  -13.264
    33    1   0.0000   0.0000   0.0238  0.02383   1.4963E-02 -3.6199E-03  1.5395E-02  -13.599
    34    1   0.0000   0.0000   0.0477  0.02383   1.4478E-02 -3.6019E-03  1.4920E-02  -13.970
    35    1   0.0000   0.0000   0.0715  0.02383   1.3681E-02 -3.4832E-03  1.4118E-02  -14.284
    36    1   0.0000   0.0000   0.0953  0.02383   1.2588E-02 -3.2691E-03  1.3006E-02  -14.558
    37    1   0.0000   0.0000   0.1191  0.02383   1.1221E-02 -2.9652E-03  1.1606E-02  -14.803
    38    1   0.0000   0.0000   0.1430  0.02383   9.6063E-03 -2.5784E-03  9.9463E-03  -15.025
    39    1   0.0000   0.0000   0.1668  0.02383   7.7755E-03 -2.1167E-03  8.0585E-03  -15.228
    40    1   0.0000   0.0000   0.1906  0.02383   5.7608E-03 -1.5887E-03  5.9759E-03  -15.417
    41    1   0.0000   0.0000   0.2144  0.02383   3.5914E-03 -1.0023E-03  3.7286E-03  -15.594
    42    1   0.0000   0.0000   0.2383  0.02383   1.2633E-03 -3.5653E-04  1.3126E-03  -15.760



                                        - - - POWER BUDGET - - -

                                           INPUT POWER   = 1.5126E-02 WATTS
                                           RADIATED POWER= 1.5126E-02 WATTS
                                           STRUCTURE LOSS= 0.0000E+00 WATTS
                                           NETWORK LOSS  =-8.6736E-19 WATTS
                                           EFFICIENCY    = 100.00 PERCENT



                                                - - - RADIATION PATTERNS - - -

  - - ANGLES - -           - POWER GAINS -       - - - POLARIZATION - - -    - - - E(THETA) - - -    - - - E(PHI) - - -
  THETA     PHI        VERT.   HOR.    TOTAL      AXIAL     TILT   SENSE     MAGNITUDE    PHASE      MAGNITUDE    PHASE 
 DEGREES  DEGREES       DB      DB      DB        RATIO     DEG.              VOLTS/M    DEGREES      VOLTS/M    DEGREES
 -180.00     0.00    -999.99 -999.99 -999.99    0.00000     0.00            1.51222E-11    75.76    0.00000E+00     0.00
 -175.00     0.00     -17.42 -999.99  -17.42    0.00000     0.00  LINEAR    1.28168E-01  -112.09    0.00000E+00     0.00
 -170.00     0.00     -11.63 -999.99  -11.63    0.00000     0.00  LINEAR    2.49671E-01  -119.89    0.00000E+00     0.00
 -165.00     0.00      -8.49 -999.99   -8.49    0.00000     0.00  LINEAR    3.58254E-01  -127.57    0.00000E+00     0.00
 -160.00     0.00      -6.54 -999.99   -6.54    0.00000     0.00  LINEAR    4.48454E-01  -135.07    0.00000E+00     0.00
 -155.00     0.00      -5.32 -999.99   -5.32    0.00000     0.00  LINEAR    5.15959E-01  -142.34    0.00000E+00     0.00
 -150.00     0.00      -4.64 -999.99   -4.64    0.00000     0.00  LINEAR    5.57897E-01  -149.32    0.00000E+00     0.00
 -145.00     0.00      -4.41 -999.99   -4.41    0.00000     0.00  LINEAR    5.73047E-01  -155.96    0.00000E+00     0.00
 -140.00     0.00      -4.58 -999.99   -4.58    0.00000     0.00  LINEAR    5.61936E-01  -162.21    0.00000E+00     0.00
 -135.00     0.00      -5.14 -999.99   -5.14    0.00000     0.00  LINEAR    5.26821E-01  -168.02    0.00000E+00     0.00
 -130.00     0.00      -6.11 -999.99   -6.11    0.00000     0.00  LINEAR    4.71531E-01  -173.35    0.00000E+00     0.00
 -125.00     0.00      -7.51 -999.99   -7.51    0.00000     0.00  LINEAR    4.01196E-01  -178.14    0.00000E+00     0.00
 -120.00     0.00      -9.42 -999.99   -9.42    0.00000     0.00  LINEAR    3.21863E-01   177.62    0.00000E+00     0.00
 -115.00     0.00     -11.97 -999.99  -11.97    0.00000     0.00  LINEAR    2.40058E-01   173.98    0.00000E+00     0.00
 -110.00     0.00     -15.37 -999.99  -15.37    0.00000     0.00  LINEAR    1.62308E-01   170.97    0.00000E+00     0.00
 -105.00     0.00     -20.05 -999.99  -20.05    0.00000     0.00  LINEAR    9.46789E-02   168.60    0.00000E+00     0.00
 -100.00     0.00     -27.04 -999.99  -27.04    0.00000     0.00  LINEAR    4.23574E-02   166.89    0.00000E+00     0.00
  -95.00     0.00     -40.20 -999.99  -40.20    0.00000     0.00  LINEAR    9.30623E-03   165.86    0.00000E+00     0.00
  -90.00     0.00     -53.59 -999.99  -53.59    0.00000     0.00  LINEAR    1.99244E-03   -14.48    0.00000E+00     0.00
  -85.00     0.00     -40.20 -999.99  -40.20    0.00000     0.00  LINEAR    9.30623E-03   165.86    0.00000E+00     0.00
  -80.00     0.00     -27.04 -999.99  -27.04    0.00000     0.00  LINEAR    4.23574E-02   166.89    0.00000E+00     0.00
  -75.00     0.00     -20.05 -999.99  -20.05    0.00000     0.00  LINEAR    9.46789E-02   168.60    0.00000E+00     0.00
  -70.00     0.00     -15.37 -999.99  -15.37    0.00000     0.00  LINEAR    1.62308E-01   170.97    0.00000E+00     0.00
  -65.00     0.00     -11.97 -999.99  -11.97    0.00000     0.00  LINEAR    2.40058E-01   173.98    0.00000E+00     0.00
  -60.00     0.00      -9.42 -999.99   -9.42    0.00000     0.00  LINEAR    3.21863E-01   177.62    0.00000E+00     0.00
  -55.00     0.00      -7.51 -999.99   -7.51    0.00000     0.00  LINEAR    4.01196E-01  -178.14    0.00000E+00     0.00
  -50.00     0.00      -6.11 -999.99   -6.11    0.00000     0.00  LINEAR    4.71531E-01  -173.35    0.00000E+00     0.00
  -45.00     0.00      -5.14 -999.99   -5.14    0.00000     0.00  LINEAR    5.26821E-01  -168.02    0.00000E+00     0.00
  -40.00     0.00      -4.58 -999.99   -4.58    0.00000     0.00  LINEAR    5.61936E-01  -162.21    0.00000E+00     0.00
  -35.00     0.00      -4.41 -999.99   -4.41    0.00000     0.00  LINEAR    5.73047E-01  -155.96    0.00000E+00     0.00
  -30.00     0.00      -4.64 -999.99   -4.64    0.00000     0.00  LINEAR    5.57897E-01  -149.32    0.00000E+00     0.00
  -25.00     0.00      -5.32 -999.99   -5.32    0.00000     0.00  LINEAR    5.15959E-01  -142.34    0.00000E+00     0.00
  -20.00     0.00      -6.54 -999.99   -6.54    0.00000     0.00  LINEAR    4.48454E-01  -135.07    0.00000E+00     0.00
  -15.00     0.00      -8.49 -999.99   -8.49    0.00000     0.00  LINEAR    3.58254E-01  -127.57    0.00000E+00     0.00
  -10.00     0.00     -11.63 -999.99  -11.63    0.00000     0.00  LINEAR    2.49671E-01  -119.89    0.00000E+00     0.00
   -5.00     0.00     -17.42 -999.99  -17.42    0.00000     0.00  LINEAR    1.28168E-01  -112.09    0.00000E+00     0.00
    0.00     0.00    -999.99 -999.99 -999.99    0.00000     0.00            0.00000E+00     0.00    0.00000E+00     0.00
 -180.00     5.00    -999.99 -999.99 -999.99    0.00000     0.00            1.51222E-11    75.76    0.00000E+00     0.00
 -175.00     5.00     -17.42 -999.99  -17.42    0.00000     0.00  LINEAR    1.28177E-01  -112.06    0.00000E+00     0.00
 -170.00     5.00     -11.63 -999.99  -11.63    0.00000     0.00  LINEAR    2.49744E-01  -119.83    0.00000E+00     0.00
