1



                                 *********************************************

                                    NUMERICAL ELECTROMAGNETICS CODE (NEC-2D)

                                 *********************************************




                                     - - - - COMMENTS - - - -


                          Example 2 :	Loaded dipole in free space                                    
                          		See GetStarted.txt                                                       
                                                                                                     
                                                                                                     
                                                                                                     
                                                                                                     
                                                                                                     




                                 - - - STRUCTURE SPECIFICATION - - -

                                     COORDINATES MUST BE INPUT IN
                                     METERS OR BE SCALED TO METERS
                                     BEFORE STRUCTURE INPUT IS ENDED


  WIRE                                                                               NO. OF    FIRST  LAST     TAG
  NO.        X1         Y1         Z1          X2         Y2         Z2      RADIUS   SEG.     SEG.   SEG.     NO.
     1    0.00000   -4.99667    0.00000     0.00000    4.99667    0.00000    0.00005     21        1    21       1

   TOTAL SEGMENTS USED=   21     NO. SEG. IN A SYMMETRIC CELL=   21     SYMMETRY FLAG=  0


         - MULTIPLE WIRE JUNCTIONS -
 JUNCTION    SEGMENTS  (- FOR END 1, + FOR END 2)
  NONE




                                 - - - - SEGMENTATION DATA - - - -

                                        COORDINATES IN METERS

                         I+ AND I- INDICATE THE SEGMENTS BEFORE AND AFTER I


  SEG.   COORDINATES OF SEG. CENTER     SEG.     ORIENTATION ANGLES    WIRE    CONNECTION DATA   TAG
  NO.       X         Y         Z       LENGTH     ALPHA     BETA      RADIUS    I-   I    I+    NO.
     1   0.00000  -4.75874   0.00000   0.47587    0.00000  90.00000   0.00005     0    1    2      1
     2   0.00000  -4.28286   0.00000   0.47587    0.00000  90.00000   0.00005     1    2    3      1
     3   0.00000  -3.80699   0.00000   0.47587    0.00000  90.00000   0.00005     2    3    4      1
     4   0.00000  -3.33112   0.00000   0.47587    0.00000  90.00000   0.00005     3    4    5      1
     5   0.00000  -2.85524   0.00000   0.47587    0.00000  90.00000   0.00005     4    5    6      1
     6   0.00000  -2.37937   0.00000   0.47587    0.00000  90.00000   0.00005     5    6    7      1
     7   0.00000  -1.90350   0.00000   0.47587    0.00000  90.00000   0.00005     6    7    8      1
     8   0.00000  -1.42762   0.00000   0.47587    0.00000  90.00000   0.00005     7    8    9      1
     9   0.00000  -0.95175   0.00000   0.47587    0.00000  90.00000   0.00005     8    9   10      1
    10   0.00000  -0.47587   0.00000   0.47587    0.00000  90.00000   0.00005     9   10   11      1
    11   0.00000   0.00000   0.00000   0.47587    0.00000  90.00000   0.00005    10   11   12      1
    12   0.00000   0.47587   0.00000   0.47587    0.00000  90.00000   0.00005    11   12   13      1
    13   0.00000   0.95175   0.00000   0.47587    0.00000  90.00000   0.00005    12   13   14      1
    14   0.00000   1.42762   0.00000   0.47587    0.00000  90.00000   0.00005    13   14   15      1
    15   0.00000   1.90350   0.00000   0.47587    0.00000  90.00000   0.00005    14   15   16      1
    16   0.00000   2.37937   0.00000   0.47587    0.00000  90.00000   0.00005    15   16   17      1
    17   0.00000   2.85524   0.00000   0.47587    0.00000  90.00000   0.00005    16   17   18      1
    18   0.00000   3.33112   0.00000   0.47587    0.00000  90.00000   0.00005    17   18   19      1
    19   0.00000   3.80699   0.00000   0.47587    0.00000  90.00000   0.00005    18   19   20      1
    20   0.00000   4.28286   0.00000   0.47587    0.00000  90.00000   0.00005    19   20   21      1
    21   0.00000   4.75874   0.00000   0.47587    0.00000  90.00000   0.00005    20   21    0      1






 ***** DATA CARD NO.  1   GN  -1     0     0     0  0.00000E+00  0.00000E+00  0.00000E+00  0.00000E+00  0.00000E+00  0.00000E+00
 ***** DATA CARD NO.  2   EK   0     0     0     0  0.00000E+00  0.00000E+00  0.00000E+00  0.00000E+00  0.00000E+00  0.00000E+00
 ***** DATA CARD NO.  3   EX   0     1    11     0  1.00000E+00  0.00000E+00  0.00000E+00  0.00000E+00  0.00000E+00  0.00000E+00
 ***** DATA CARD NO.  4   FR   0     0     0     0  1.50100E+01  0.00000E+00  0.00000E+00  0.00000E+00  0.00000E+00  0.00000E+00
 ***** DATA CARD NO.  5   RP   0    37    73  1003 -1.80000E+02  0.00000E+00  5.00000E+00  5.00000E+00  0.00000E+00  0.00000E+00




                                 - - - - - - FREQUENCY - - - - - -

                                    FREQUENCY= 1.5010E+01 MHZ
                                    WAVELENGTH= 1.9973E+01 METERS




                    APPROXIMATE INTEGRATION EMPLOYED FOR SEGMENTS MORE THAN   1.000 WAVELENGTHS APART

                    THE EXTENDED THIN WIRE KERNEL WILL BE USED



                               - - - STRUCTURE IMPEDANCE LOADING - - -

                                   THIS STRUCTURE IS NOT LOADED



                                  - - - ANTENNA ENVIRONMENT - - -

                                            FREE SPACE



                                - - - MATRIX TIMING - - -

                        FILL=    0.016 SEC.,  FACTOR=    0.000 SEC.



                                          - - - ANTENNA INPUT PARAMETERS - - -

   TAG   SEG.    VOLTAGE (VOLTS)         CURRENT (AMPS)         IMPEDANCE (OHMS)        ADMITTANCE (MHOS)      POWER
   NO.   NO.    REAL        IMAG.       REAL        IMAG.       REAL        IMAG.       REAL        IMAG.     (WATTS)
     1    11 1.00000E+00 0.00000E+00 9.63339E-03-5.66041E-03 7.71644E+01 4.53404E+01 9.63339E-03-5.66041E-03 4.81669E-03



                             - - - CURRENTS AND LOCATION - - -

                                 DISTANCES IN WAVELENGTHS


  SEG.  TAG    COORD. OF SEG. CENTER     SEG.            - - - CURRENT (AMPS) - - -
  NO.   NO.     X        Y        Z      LENGTH     REAL        IMAG.       MAG.        PHASE
     1    1   0.0000  -0.2383   0.0000  0.02383   8.0397E-04 -5.3212E-04  9.6411E-04  -33.499
     2    1   0.0000  -0.2144   0.0000  0.02383   2.2859E-03 -1.5011E-03  2.7347E-03  -33.292
     3    1   0.0000  -0.1906   0.0000  0.02383   3.6672E-03 -2.3882E-03  4.3763E-03  -33.074
     4    1   0.0000  -0.1668   0.0000  0.02383   4.9503E-03 -3.1953E-03  5.8920E-03  -32.842
     5    1   0.0000  -0.1430   0.0000  0.02383   6.1164E-03 -3.9104E-03  7.2596E-03  -32.592
     6    1   0.0000  -0.1191   0.0000  0.02383   7.1449E-03 -4.5205E-03  8.4549E-03  -32.321
     7    1   0.0000  -0.0953   0.0000  0.02383   8.0161E-03 -5.0134E-03  9.4547E-03  -32.023
     8    1   0.0000  -0.0715   0.0000  0.02383   8.7127E-03 -5.3785E-03  1.0239E-02  -31.688
     9    1   0.0000  -0.0477   0.0000  0.02383   9.2206E-03 -5.6074E-03  1.0792E-02  -31.305
    10    1   0.0000  -0.0238   0.0000  0.02383   9.5297E-03 -5.6923E-03  1.1100E-02  -30.851
    11    1   0.0000   0.0000   0.0000  0.02383   9.6334E-03 -5.6604E-03  1.1173E-02  -30.438
    12    1   0.0000   0.0238   0.0000  0.02383   9.5297E-03 -5.6923E-03  1.1100E-02  -30.851
    13    1   0.0000   0.0477   0.0000  0.02383   9.2207E-03 -5.6074E-03  1.0792E-02  -31.305
    14    1   0.0000   0.0715   0.0000  0.02383   8.7127E-03 -5.3785E-03  1.0239E-02  -31.688
    15    1   0.0000   0.0953   0.0000  0.02383   8.0161E-03 -5.0134E-03  9.4547E-03  -32.023
    16    1   0.0000   0.1191   0.0000  0.02383   7.1449E-03 -4.5205E-03  8.4549E-03  -32.321
    17    1   0.0000   0.1430   0.0000  0.02383   6.1164E-03 -3.9104E-03  7.2596E-03  -32.592
    18    1   0.0000   0.1668   0.0000  0.02383   4.9503E-03 -3.1953E-03  5.8920E-03  -32.842
    19    1   0.0000   0.1906   0.0000  0.02383   3.6672E-03 -2.3882E-03  4.3763E-03  -33.074
    20    1   0.0000   0.2144   0.0000  0.02383   2.2859E-03 -1.5011E-03  2.7347E-03  -33.292
    21    1   0.0000   0.2383   0.0000  0.02383   8.0397E-04 -5.3212E-04  9.6411E-04  -33.499



                                        - - - POWER BUDGET - - -

                                           INPUT POWER   = 4.8167E-03 WATTS
                                           RADIATED POWER= 4.8167E-03 WATTS
                                           STRUCTURE LOSS= 0.0000E+00 WATTS
                                           NETWORK LOSS  = 0.0000E+00 WATTS
                                           EFFICIENCY    = 100.00 PERCENT



                                                - - - RADIATION PATTERNS - - -

  - - ANGLES - -           - POWER GAINS -       - - - POLARIZATION - - -    - - - E(THETA) - - -    - - - E(PHI) - - -
  THETA     PHI        VERT.   HOR.    TOTAL      AXIAL     TILT   SENSE     MAGNITUDE    PHASE      MAGNITUDE    PHASE 
 DEGREES  DEGREES       DB      DB      DB        RATIO     DEG.              VOLTS/M    DEGREES      VOLTS/M    DEGREES
 -180.00     0.00    -999.99    2.16    2.16    0.00000   -90.00  LINEAR    0.00000E+00     0.00    6.89012E-01  -121.86
 -175.00     0.00    -999.99    2.16    2.16    0.00000   -90.00  LINEAR    0.00000E+00     0.00    6.89012E-01  -121.86
 -170.00     0.00    -999.99    2.16    2.16    0.00000   -90.00  LINEAR    0.00000E+00     0.00    6.89012E-01  -121.86
 -165.00     0.00    -999.99    2.16    2.16    0.00000   -90.00  LINEAR    0.00000E+00     0.00    6.89012E-01  -121.86
 -160.00     0.00    -999.99    2.16    2.16    0.00000   -90.00  LINEAR    0.00000E+00     0.00    6.89012E-01  -121.86
 -155.00     0.00    -999.99    2.16    2.16    0.00000   -90.00  LINEAR    0.00000E+00     0.00    6.89012E-01  -121.86
 -150.00     0.00    -999.99    2.16    2.16    0.00000   -90.00  LINEAR    0.00000E+00     0.00    6.89012E-01  -121.86
 -145.00     0.00    -999.99    2.16    2.16    0.00000   -90.00  LINEAR    0.00000E+00     0.00    6.89012E-01  -121.86
 -140.00     0.00    -999.99    2.16    2.16    0.00000   -90.00  LINEAR    0.00000E+00     0.00    6.89012E-01  -121.86
 -135.00     0.00    -999.99    2.16    2.16    0.00000   -90.00  LINEAR    0.00000E+00     0.00    6.89012E-01  -121.86
 -130.00     0.00    -999.99    2.16    2.16    0.00000   -90.00  LINEAR    0.00000E+00     0.00    6.89012E-01  -121.86
 -125.00     0.00    -999.99    2.16    2.16    0.00000   -90.00  LINEAR    0.00000E+00     0.00    6.89012E-01  -121.86
 -120.00     0.00    -999.99    2.16    2.16    0.00000   -90.00  LINEAR    0.00000E+00     0.00    6.89012E-01  -121.86
 -115.00     0.00    -999.99    2.16    2.16    0.00000   -90.00  LINEAR    0.00000E+00     0.00    6.89012E-01  -121.86
 -110.00     0.00    -999.99    2.16    2.16    0.00000   -90.00  LINEAR    0.00000E+00     0.00    6.89012E-01  -121.86
 -105.00     0.00    -999.99    2.16    2.16    0.00000   -90.00  LINEAR    0.00000E+00     0.00    6.89012E-01  -121.86
 -100.00     0.00    -999.99    2.16    2.16    0.00000   -90.00  LINEAR    0.00000E+00     0.00    6.89012E-01  -121.86
  -95.00     0.00    -999.99    2.16    2.16    0.00000   -90.00  LINEAR    0.00000E+00     0.00    6.89012E-01  -121.86
  -90.00     0.00    -999.99    2.16    2.16    0.00000   -90.00  LINEAR    0.00000E+00     0.00    6.89012E-01  -121.86
  -85.00     0.00    -999.99    2.16    2.16    0.00000   -90.00  LINEAR    0.00000E+00     0.00    6.89012E-01  -121.86
  -80.00     0.00    -999.99    2.16    2.16    0.00000   -90.00  LINEAR    0.00000E+00     0.00    6.89012E-01  -121.86
  -75.00     0.00    -999.99    2.16    2.16    0.00000   -90.00  LINEAR    0.00000E+00     0.00    6.89012E-01  -121.86
  -70.00     0.00    -999.99    2.16    2.16    0.00000   -90.00  LINEAR    0.00000E+00     0.00    6.89012E-01  -121.86
  -65.00     0.00    -999.99    2.16    2.16    0.00000   -90.00  LINEAR    0.00000E+00     0.00    6.89012E-01  -121.86
  -60.00     0.00    -999.99    2.16    2.16    0.00000   -90.00  LINEAR    0.00000E+00     0.00    6.89012E-01  -121.86
  -55.00     0.00    -999.99    2.16    2.16    0.00000   -90.00  LINEAR    0.00000E+00     0.00    6.89012E-01  -121.86
  -50.00     0.00    -999.99    2.16    2.16    0.00000   -90.00  LINEAR    0.00000E+00     0.00    6.89012E-01  -121.86
  -45.00     0.00    -999.99    2.16    2.16    0.00000   -90.00  LINEAR    0.00000E+00     0.00    6.89012E-01  -121.86
  -40.00     0.00    -999.99    2.16    2.16    0.00000   -90.00  LINEAR    0.00000E+00     0.00    6.89012E-01  -121.86
  -35.00     0.00    -999.99    2.16    2.16    0.00000   -90.00  LINEAR    0.00000E+00     0.00    6.89012E-01  -121.86
  -30.00     0.00    -999.99    2.16    2.16    0.00000   -90.00  LINEAR    0.00000E+00     0.00    6.89012E-01  -121.86
  -25.00     0.00    -999.99    2.16    2.16    0.00000   -90.00  LINEAR    0.00000E+00     0.00    6.89012E-01  -121.86
  -20.00     0.00    -999.99    2.16    2.16    0.00000   -90.00  LINEAR    0.00000E+00     0.00    6.89012E-01  -121.86
  -15.00     0.00    -999.99    2.16    2.16    0.00000   -90.00  LINEAR    0.00000E+00     0.00    6.89012E-01  -121.86
  -10.00     0.00    -999.99    2.16    2.16    0.00000   -90.00  LINEAR    0.00000E+00     0.00    6.89012E-01  -121.86
   -5.00     0.00    -999.99    2.16    2.16    0.00000   -90.00  LINEAR    0.00000E+00     0.00    6.89012E-01  -121.86
    0.00     0.00    -999.99    2.16    2.16    0.00000   -90.00  LINEAR    0.00000E+00     0.00    6.89012E-01  -121.86
 -180.00     5.00     -19.04    2.13    2.16    0.00000   -85.00  LINEAR    6.00513E-02    58.14    6.86390E-01  -121.86
 -175.00     5.00     -19.07    2.13    2.16    0.00000   -85.02  LINEAR    5.98220E-02    58.14    6.86380E-01  -121.86
 -170.00     5.00     -19.17    2.12    2.16    0.00000   -85.08  LINEAR    5.91357E-02    58.14    6.86352E-01  -121.86
 -165.00     5.00     -19.34    2.12    2.16    0.00000   -85.17  LINEAR    5.79980E-02    58.14    6.86306E-01  -121.86
 -160.00     5.00     -19.58    2.12    2.15    0.00000   -85.30  LINEAR    5.64177E-02    58.14    6.86243E-01  -121.86
 -155.00     5.00     -19.89    2.12    2.15    0.00000   -85.47  LINEAR    5.44072E-02    58.14    6.86166E-01  -121.86
 -150.00     5.00     -20.29    2.12    2.15    0.00000   -85.67  LINEAR    5.19822E-02    58.14    6.86076E-01  -121.86
 -145.00     5.00     -20.77    2.12    2.14    0.00000   -85.90  LINEAR    4.91616E-02    58.14    6.85977E-01  -121.86
 -140.00     5.00     -21.36    2.12    2.14    0.00000   -86.17  LINEAR    4.59673E-02    58.14    6.85872E-01  -121.86
 -135.00     5.00     -22.05    2.12    2.13    0.00000   -86.46  LINEAR    4.24239E-02    58.14    6.85763E-01  -121.86
 -130.00     5.00     -22.88    2.12    2.13    0.00000   -86.78  LINEAR    3.85589E-02    58.14    6.85654E-01  -121.86
 -125.00     5.00     -23.87    2.11    2.13    0.00000   -87.13  LINEAR    3.44018E-02    58.14    6.85549E-01  -121.86
 -120.00     5.00     -25.07    2.11    2.12    0.00000   -87.50  LINEAR    2.99845E-02    58.14    6.85450E-01  -121.86
 -115.00     5.00     -26.53    2.11    2.12    0.00000   -87.88  LINEAR    2.53407E-02    58.14    6.85360E-01  -121.86
 -110.00     5.00     -28.37    2.11    2.12    0.00000   -88.29  LINEAR    2.05056E-02    58.14    6.85283E-01  -121.86
 -105.00     5.00     -30.79    2.11    2.11    0.00000   -88.70  LINEAR    1.55159E-02    58.14    6.85220E-01  -121.86
 -100.00     5.00     -34.26    2.11    2.11    0.00000   -89.13  LINEAR    1.04093E-02    58.14    6.85174E-01  -121.86
  -95.00     5.00     -40.25    2.11    2.11    0.00000   -89.56  LINEAR    5.22433E-03    58.14    6.85146E-01  -121.86
  -90.00     5.00    -999.99    2.11    2.11    0.00000   -90.00  LINEAR    3.05907E-13    58.14    6.85136E-01  -121.86
  -85.00     5.00     -40.25    2.11    2.11    0.00000    89.56  LINEAR    5.22433E-03  -121.86    6.85146E-01  -121.86
  -80.00     5.00     -34.26    2.11    2.11    0.00000    89.13  LINEAR    1.04093E-02  -121.86    6.85174E-01  -121.86
  -75.00     5.00     -30.79    2.11    2.11    0.00000    88.70  LINEAR    1.55159E-02  -121.86    6.85220E-01  -121.86
  -70.00     5.00     -28.37    2.11    2.12    0.00000    88.29  LINEAR    2.05056E-02  -121.86    6.85283E-01  -121.86
  -65.00     5.00     -26.53    2.11    2.12    0.00000    87.88  LINEAR    2.53407E-02  -121.86    6.85360E-01  -121.86
  -60.00     5.00     -25.07    2.11    2.12    0.00000    87.50  LINEAR    2.99845E-02  -121.86    6.85450E-01  -121.86
  -55.00     5.00     -23.87    2.11    2.13    0.00000    87.13  LINEAR    3.44018E-02  -121.86    6.85549E-01  -121.86
  -50.00     5.00     -22.88    2.12    2.13    0.00000    86.78  LINEAR    3.85589E-02  -121.86    6.85654E-01  -121.86
  -45.00     5.00     -22.05    2.12    2.13    0.00000    86.46  LINEAR    4.24239E-02  -121.86    6.85763E-01  -121.86
  -40.00     5.00     -21.36    2.12    2.14    0.00000    86.17  LINEAR    4.59673E-02  -121.86    6.85872E-01  -121.86
  -35.00     5.00     -20.77    2.12    2.14    0.00000    85.90  LINEAR    4.91616E-02  -121.86    6.85977E-01  -121.86
  -30.00     5.00     -20.29    2.12    2.15    0.00000    85.67  LINEAR    5.19822E-02  -121.86    6.86076E-01  -121.86
  -25.00     5.00     -19.89    2.12    2.15    0.00000    85.47  LINEAR    5.44072E-02  -121.86    6.86166E-01  -121.86
  -20.00     5.00     -19.58    2.12    2.15    0.00000    85.30  LINEAR    5.64177E-02  -121.86    6.86243E-01  -121.86
  -15.00     5.00     -19.34    2.12    2.16    0.00000    85.17  LINEAR    5.79980E-02  -121.86    6.86306E-01  -121.86
  -10.00     5.00     -19.17    2.12    2.16    0.00000    85.08  LINEAR    5.91357E-02  -121.86    6.86352E-01  -121.86
   -5.00     5.00     -19.07    2.13    2.16    0.00000    85.02  LINEAR    5.98220E-02  -121.86    6.86380E-01  -121.86
    0.00     5.00     -19.04    2.13    2.16    0.00000    85.00  LINEAR    6.00513E-02  -121.86    6.86390E-01  -121.86
 -180.00    10.00     -13.05    2.03    2.16    0.00000   -80.00  LINEAR    1.19646E-01    58.14    6.78544E-01  -121.86
 -175.00    10.00     -13.08    2.03    2.16    0.00000   -80.04  LINEAR    1.19184E-01    58.14    6.78507E-01  -121.86
 -170.00    10.00     -13.18    2.02    2.15    0.00000   -80.15  LINEAR    1.17802E-01    58.14    6.78396E-01  -121.86
 -165.00    10.00     -13.35    2.02    2.15    0.00000   -80.33  LINEAR    1.15513E-01    58.14    6.78214E-01  -121.86
 -160.00    10.00     -13.60    2.02    2.14    0.00000   -80.59  LINEAR    1.12335E-01    58.14    6.77968E-01  -121.86
 -155.00    10.00     -13.91    2.01    2.12    0.00000   -80.92  LINEAR    1.08295E-01    58.14    6.77665E-01  -121.86
 -150.00    10.00     -14.31    2.01    2.11    0.00000   -81.32  LINEAR    1.03428E-01    58.14    6.77314E-01  -121.86
 -145.00    10.00     -14.80    2.00    2.09    0.00000   -81.78  LINEAR    9.77743E-02    58.14    6.76926E-01  -121.86
 -140.00    10.00     -15.39    2.00    2.08    0.00000   -82.31  LINEAR    9.13795E-02    58.14    6.76513E-01  -121.86
 -135.00    10.00     -16.09    1.99    2.06    0.00000   -82.89  LINEAR    8.42958E-02    58.14    6.76086E-01  -121.86
 -130.00    10.00     -16.92    1.99    2.04    0.00000   -83.53  LINEAR    7.65799E-02    58.14    6.75660E-01  -121.86
 -125.00    10.00     -17.92    1.98    2.03    0.00000   -84.22  LINEAR    6.82925E-02    58.14    6.75247E-01  -121.86
 -120.00    10.00     -19.12    1.98    2.01    0.00000   -84.96  LINEAR    5.94980E-02    58.14    6.74860E-01  -121.86
